Time [s],Value,Parity Error,Framing Error
0.4858000000,0x53,,
0.4873350000,0xB0,,
0.4887700000,0x1B,,
0.4902050000,0x00,,
0.4916500000,0xFD,,
0.4929850000,0x1E,,
0.4945200000,0x00,,
0.4959650000,0x0C,,
0.4974000000,0x01,,
0.4988350000,0x16,,
0.5002700000,0x0E,,
0.5016150000,0x25,,
0.5030500000,0x00,,
0.5308650000,0x53,,
0.5323800000,0xB0,,
0.5338900000,0x1B,,
0.5353950000,0x00,,
0.5368350000,0xFD,,
0.5382700000,0x1E,,
0.5397050000,0x00,,
0.5410500000,0x0C,,
0.5424850000,0x01,,
0.5441150000,0x15,,
0.5455550000,0x0E,,
0.5469950000,0x24,,
0.5483300000,0x00,,
0.5687750000,0x53,,
0.5702100000,0xB0,,
0.5718550000,0x1B,,
0.5732900000,0x00,,
0.5746250000,0xFD,,
0.5760700000,0x1E,,
0.5775050000,0x00,,
0.5790350000,0x0C,,
0.5804750000,0x01,,
0.5820150000,0x14,,
0.5833500000,0x0E,,
0.5847850000,0x23,,
0.5862300000,0x00,,
0.6061650000,0x53,,
0.6076800000,0xB0,,
0.6090800000,0x1B,,
0.6104950000,0x00,,
0.6119350000,0xFD,,
0.6133700000,0x1E,,
0.6148050000,0x00,,
0.6161500000,0x0C,,
0.6175850000,0x01,,
0.6190200000,0x13,,
0.6205600000,0x0E,,
0.6219000000,0x22,,
0.6234350000,0x00,,
0.6818000000,0x53,,
0.6832350000,0xB0,,
0.6847700000,0x1B,,
0.6863100000,0x00,,
0.6878450000,0xFD,,
0.6891800000,0x1E,,
0.6907250000,0x00,,
0.6922550000,0x0C,,
0.6936900000,0x01,,
0.6953250000,0x12,,
0.6968650000,0x0E,,
0.6982000000,0x21,,
0.6995400000,0x00,,
0.8829800000,0x53,,
0.8844150000,0xB0,,
0.8858600000,0x1B,,
0.8872950000,0x00,,
0.8887300000,0xFD,,
0.8901650000,0x1E,,
0.8916100000,0x00,,
0.8930450000,0x0C,,
0.8943800000,0x01,,
0.8958250000,0x13,,
0.8971650000,0x0E,,
0.8986950000,0x22,,
0.9000350000,0x00,,
0.9366350000,0x53,,
0.9380700000,0xB0,,
0.9396050000,0x1B,,
0.9410500000,0x00,,
0.9424850000,0xFD,,
0.9439200000,0x1E,,
0.9453550000,0x00,,
0.9468950000,0x0C,,
0.9483300000,0x01,,
0.9496700000,0x14,,
0.9511100000,0x0E,,
0.9524500000,0x23,,
0.9538850000,0x00,,
0.9745250000,0x53,,
0.9758700000,0xB0,,
0.9773050000,0x1B,,
0.9788400000,0x00,,
0.9801750000,0xFD,,
0.9816200000,0x1E,,
0.9830550000,0x00,,
0.9845900000,0x0C,,
0.9860350000,0x01,,
0.9874700000,0x15,,
0.9888050000,0x0E,,
0.9904350000,0x24,,
0.9917800000,0x00,,
1.0059250000,0x53,,
1.0074600000,0xB0,,
1.0088950000,0x1B,,
1.0103300000,0x00,,
1.0117750000,0xFD,,
1.0132100000,0x1E,,
1.0145450000,0x00,,
1.0159900000,0x0C,,
1.0174250000,0x01,,
1.0188600000,0x16,,
1.0203950000,0x0E,,
1.0215400000,0x25,,
1.0230750000,0x00,,
1.0412750000,0x53,,
1.0426750000,0xB0,,
1.0442000000,0x1B,,
1.0484150000,0x1E,,
1.0555750000,0x0E,,
1.0570150000,0x26,,
1.0585500000,0x00,,
1.0769300000,0x53,,
1.0783650000,0xB0,,
1.0798000000,0x1B,,
1.0811450000,0x00,,
1.0825800000,0xFD,,
1.0841100000,0x1E,,
1.0855500000,0x00,,
1.0868950000,0x0C,,
1.0884250000,0x01,,
1.0897650000,0x17,,
1.0912050000,0x0E,,
1.0926400000,0x26,,
1.0940750000,0x00,,
1.1067450000,0x53,,
1.1081800000,0xB0,,
1.1096150000,0x1B,,
1.1110600000,0x00,,
1.1125950000,0xFD,,
1.1139300000,0x1E,,
1.1153650000,0x00,,
1.1167100000,0x0C,,
1.1181450000,0x01,,
1.1195800000,0x17,,
1.1210250000,0x0E,,
1.1224600000,0x26,,
1.1238000000,0x00,,
1.1402000000,0xB0,,
1.1444250000,0xFD,,
1.1459450000,0x1E,,
1.1473500000,0x00,,
1.1488600000,0x0C,,
1.1532100000,0x0E,,
1.1548400000,0x26,,
1.1563800000,0x00,,
1.1976100000,0x53,,
1.1991400000,0xB0,,
1.2006800000,0x1B,,
1.2022150000,0x00,,
1.2036500000,0xFD,,
1.2052850000,0x1E,,
1.2067300000,0x00,,
1.2082600000,0x0C,,
1.2097950000,0x01,,
1.2113350000,0x17,,
1.2129700000,0x0E,,
1.2146000000,0x26,,
1.2161450000,0x00,,
1.5857200000,0x53,,
1.5872550000,0xB0,,
1.5887900000,0x1B,,
1.5903250000,0x00,,
1.5918650000,0xFD,,
1.5932000000,0x1E,,
1.5949300000,0x00,,
1.5963750000,0x0C,,
1.5979100000,0x01,,
1.5994450000,0x17,,
1.6009850000,0x0E,,
1.6025200000,0x26,,
1.6041500000,0x00,,
1.6310050000,0x53,,
1.6325350000,0xB0,,
1.6340700000,0x1B,,
1.6354050000,0x00,,
1.6370450000,0xFD,,
1.6385800000,0x1E,,
1.6401150000,0x00,,
1.6416550000,0x0C,,
1.6431900000,0x01,,
1.6447000000,0x17,,
1.6729550000,0x53,,
1.6744900000,0xB0,,
1.6760300000,0x1B,,
1.6775650000,0x00,,
1.6790950000,0xFD,,
1.6805300000,0x1E,,
1.6820750000,0x00,,
1.6835100000,0x0C,,
1.6850450000,0x01,,
1.6865850000,0x17,,
1.6882150000,0x0E,,
1.6897500000,0x26,,
1.6910950000,0x00,,
1.7039550000,0x53,,
1.7054850000,0xB0,,
1.7070300000,0x1B,,
1.7086600000,0x00,,
1.7100000000,0xFD,,
1.7115400000,0x1E,,
1.7130750000,0x00,,
1.7146050000,0x0C,,
1.7160500000,0x01,,
1.7176850000,0x17,,
1.7191200000,0x0E,,
1.7206500000,0x26,,
1.7219950000,0x00,,
1.7338700000,0x53,,
1.7355050000,0xB0,,
1.7369450000,0x1B,,
1.7384800000,0x00,,
1.7400150000,0xFD,,
1.7415550000,0x1E,,
1.7429900000,0x00,,
1.7444250000,0x0C,,
1.7460650000,0x01,,
1.7475000000,0x17,,
1.7490350000,0x0E,,
1.7505700000,0x26,,
1.7519150000,0x00,,
1.7617250000,0x53,,
1.7632550000,0xB0,,
1.7646900000,0x1B,,
1.7661350000,0x00,,
1.7676700000,0xFD,,
1.7692050000,0x1E,,
1.7707400000,0x00,,
1.7722800000,0x0C,,
1.7738100000,0x01,,
1.7750500000,0x17,,
1.7764950000,0x0E,,
1.7780300000,0x26,,
1.7794650000,0x00,,
1.7892750000,0x53,,
1.7907100000,0xB0,,
1.7922500000,0x1B,,
1.7935850000,0x00,,
1.7951200000,0xFD,,
1.7965650000,0x1E,,
1.7980000000,0x00,,
1.7994350000,0x0C,,
1.8008750000,0x01,,
1.8022150000,0x17,,
1.8037250000,0x0E,,
1.8051400000,0x26,,
1.8066600000,0x00,,
2.0008950000,0x53,,
2.0023350000,0xB0,,
2.0037700000,0x1B,,
2.0053050000,0x00,,
2.0067500000,0xFD,,
2.0082850000,0x1E,,
2.0098150000,0x00,,
2.0112600000,0x0C,,
2.0125950000,0x01,,
2.0142300000,0x16,,
2.0157600000,0x0E,,
2.0173050000,0x25,,
2.0187400000,0x00,,
2.0249050000,0x53,,
2.0262500000,0xB0,,
2.0278800000,0x1B,,
2.0294150000,0x00,,
2.0309500000,0xFD,,
2.0323900000,0x1E,,
2.0339250000,0x00,,
2.0355550000,0x0C,,
2.0370000000,0x01,,
2.0384350000,0x15,,
2.0399700000,0x0E,,
2.0415100000,0x24,,
2.0440250000,0x53,,
2.0454600000,0xB0,,
2.0470050000,0x1B,,
2.0485400000,0x00,,
2.0500700000,0xFD,,
2.0576000000,0x14,,
2.0624300000,0x00,,
2.0699400000,0x53,,
2.0714800000,0xB0,,
2.0730150000,0x1B,,
2.0745450000,0x00,,
2.0760850000,0xFD,,
2.0775250000,0x1E,,
2.0790600000,0x00,,
2.0805900000,0x0C,,
2.0820350000,0x01,,
2.0836700000,0x13,,
2.0852000000,0x0E,,
2.0867450000,0x22,,
2.0881800000,0x00,,
2.0942450000,0x53,,
2.0956800000,0xB0,,
2.0973200000,0x1B,,
2.0988500000,0x00,,
2.1004850000,0xFD,,
2.1018300000,0x1E,,
2.1033650000,0x00,,
2.1048950000,0x0C,,
2.1065350000,0x01,,
2.1080700000,0x12,,
2.1096050000,0x0E,,
2.1111450000,0x21,,
2.1125800000,0x00,,
2.1426750000,0x20,,
2.1441100000,0x00,,
2.1616050000,0x53,,
2.1630400000,0xB0,,
2.1646750000,0x1B,,
2.1662150000,0x00,,
2.1678450000,0xFD,,
2.1692800000,0x1E,,
2.1708150000,0x00,,
2.1724550000,0x0C,,
2.1738900000,0x01,,
2.1756200000,0x10,,
2.1770650000,0x0E,,
2.1786950000,0x1F,,
2.1801300000,0x00,,
2.5402250000,0xB0,,
2.5416450000,0x1B,,
2.5516050000,0x0F,,
2.5529400000,0x0E,,
2.5543750000,0x1E,,
2.5559100000,0x00,,
2.5682800000,0x53,,
2.5698150000,0xB0,,
2.5712600000,0x1B,,
2.5725950000,0x00,,
2.5742300000,0xFD,,
2.5754650000,0x1E,,
2.5769100000,0x00,,
2.5783450000,0x0C,,
2.5797800000,0x01,,
2.5812200000,0x0E,,
2.5825600000,0x0E,,
2.5839950000,0x1D,,
2.5854300000,0x00,,
2.6001650000,0x53,,
2.6016100000,0xB0,,
2.6029450000,0x1B,,
2.6043800000,0x00,,
2.6058150000,0xFD,,
2.6071600000,0x1E,,
2.6085950000,0x00,,
2.6100300000,0x0C,,
2.6114750000,0x01,,
2.6128150000,0x0D,,
2.6142500000,0x0E,,
2.6156850000,0x1C,,
2.6171250000,0x00,,
2.6275250000,0x53,,
2.6290600000,0xB0,,
2.6303950000,0x1B,,
2.6318400000,0x00,,
2.6333750000,0xFD,,
2.6348100000,0x1E,,
2.6362500000,0x00,,
2.6376900000,0x0C,,
2.6391250000,0x01,,
2.6405600000,0x0C,,
2.6420050000,0x0E,,
2.6432400000,0x1B,,
2.6447750000,0x00,,
2.6599000000,0x53,,
2.6612450000,0xB0,,
2.6626800000,0x1B,,
2.6641200000,0x00,,
2.6655550000,0xFD,,
2.6670950000,0x1E,,
2.6685300000,0x00,,
2.6698650000,0x0C,,
2.6712100000,0x01,,
2.6726500000,0x0B,,
2.6740850000,0x0E,,
2.6756150000,0x1A,,
2.6769600000,0x00,,
2.6973100000,0x53,,
2.6988400000,0xB0,,
2.7002750000,0x1B,,
2.7016250000,0x00,,
2.7030600000,0xFD,,
2.7044950000,0x1E,,
2.7060300000,0x00,,
2.7074700000,0x0C,,
2.7087100000,0x01,,
2.7101450000,0x0A,,
2.7117850000,0x0E,,
2.7131200000,0x19,,
2.7145550000,0x00,,
3.0770500000,0x00,,
3.0784850000,0xFD,,
3.0798250000,0x1E,,
3.0813600000,0x00,,
3.0828000000,0x0C,,
3.0843350000,0x01,,
3.0857700000,0x09,,
3.0873100000,0x0E,,
3.0887450000,0x18,,
3.0902800000,0x00,,
3.1005800000,0x53,,
3.1021250000,0xB0,,
3.1034600000,0x1B,,
3.1048950000,0x00,,
3.1063350000,0xFD,,
3.1079700000,0x1E,,
3.1094050000,0x00,,
3.1109400000,0x0C,,
3.1122850000,0x01,,
3.1138200000,0x08,,
3.1153500000,0x0E,,
3.1169900000,0x17,,
3.1184250000,0x00,,
3.1264650000,0x53,,
3.1275100000,0xB0,,
3.1287400000,0x1B,,
3.1301750000,0x00,,
3.1317200000,0xFD,,
3.1332550000,0x1E,,
3.1347850000,0x00,,
3.1362250000,0x0C,,
3.1377650000,0x01,,
3.1393950000,0x07,,
3.1408300000,0x0E,,
3.1422750000,0x16,,
3.1438100000,0x00,,
3.1543050000,0x53,,
3.1556400000,0xB0,,
3.1571850000,0x1B,,
3.1587200000,0x00,,
3.1602500000,0xFD,,
3.1616950000,0x1E,,
3.1632300000,0x00,,
3.1645650000,0x0C,,
3.1875750000,0x53,,
3.1890100000,0xB0,,
3.1906450000,0x1B,,
3.1921850000,0x00,,
3.1936200000,0xFD,,
3.1950550000,0x1E,,
3.1966000000,0x00,,
3.1980350000,0x0C,,
3.1995650000,0x01,,
3.2011000000,0x05,,
3.2026450000,0x0E,,
3.2039800000,0x14,,
3.2055150000,0x00,,
3.7630000000,0x53,,
3.7645350000,0xB0,,
3.7659700000,0x1B,,
3.7676100000,0x00,,
3.7689450000,0xFD,,
3.7703800000,0x1E,,
3.7719250000,0x00,,
3.7733600000,0x0C,,
3.7748950000,0x01,,
3.7763350000,0x06,,
3.7778700000,0x0E,,
3.7793050000,0x15,,
3.7807400000,0x00,,
3.7948850000,0x53,,
3.7964250000,0xB0,,
3.7978600000,0x1B,,
3.7992000000,0x00,,
3.8007300000,0xFD,,
3.8022750000,0x1E,,
3.8037100000,0x00,,
3.8053400000,0x0C,,
3.8068850000,0x01,,
3.8082200000,0x07,,
3.8097550000,0x0E,,
3.8111900000,0x16,,
3.8127300000,0x00,,
3.8222450000,0x53,,
3.8237800000,0xB0,,
3.8253150000,0x1B,,
3.8267550000,0x00,,
3.8281900000,0xFD,,
3.8296250000,0x1E,,
3.8312600000,0x00,,
3.8328000000,0x0C,,
3.8342350000,0x01,,
3.8357700000,0x08,,
3.8371150000,0x0E,,
3.8387450000,0x17,,
3.8401800000,0x00,,
3.8484200000,0x53,,
3.8497550000,0xB0,,
3.8512900000,0x1B,,
3.8527350000,0x00,,
3.8543650000,0xFD,,
3.8559000000,0x1E,,
3.8573400000,0x00,,
3.8588750000,0x0C,,
3.8603100000,0x01,,
3.8617550000,0x09,,
3.8633850000,0x0E,,
3.8648200000,0x18,,
3.8663600000,0x00,,
3.8759700000,0x53,,
3.8774100000,0xB0,,
3.8787500000,0x1B,,
3.8802800000,0x00,,
3.8816250000,0xFD,,
3.8830650000,0x1E,,
3.8845000000,0x00,,
3.8859350000,0x0C,,
3.8873750000,0x01,,
3.8888100000,0x0A,,
3.8902450000,0x0E,,
3.8916900000,0x19,,
3.8931250000,0x00,,
3.9051000000,0x53,,
3.9067400000,0xB0,,
3.9080750000,0x1B,,
3.9094150000,0x00,,
3.9109450000,0xFD,,
3.9123900000,0x1E,,
3.9138250000,0x00,,
3.9151600000,0x0C,,
3.9166000000,0x01,,
3.9180400000,0x0B,,
3.9194750000,0x0E,,
3.9209100000,0x1A,,
3.9222550000,0x00,,
3.9427000000,0x53,,
3.9441350000,0xB0,,
3.9455700000,0x1B,,
3.9468200000,0x00,,
3.9481550000,0xFD,,
3.9495900000,0x1E,,
3.9510250000,0x00,,
3.9523700000,0x0C,,
3.9538050000,0x01,,
3.9552400000,0x0C,,
3.9566850000,0x0E,,
3.9582200000,0x1B,,
3.9596550000,0x00,,
4.3441050000,0x53,,
4.3456400000,0xB0,,
4.3470850000,0x1B,,
4.3486150000,0x00,,
4.3499550000,0xFD,,
4.3512900000,0x1E,,
4.3528300000,0x00,,
4.3542650000,0x0C,,
4.3556050000,0x01,,
4.3570500000,0x0D,,
4.3583850000,0x0E,,
4.3598200000,0x1C,,
4.3612550000,0x00,,
4.3895800000,0x53,,
4.3908200000,0xB0,,
4.3921650000,0x1B,,
4.3935050000,0x00,,
4.3949400000,0xFD,,
4.3964700000,0x1E,,
4.3977200000,0x00,,
4.3991550000,0x0C,,
4.4005900000,0x01,,
4.4019350000,0x0E,,
4.4328150000,0x53,,
4.4342500000,0xB0,,
4.4356850000,0x1B,,
4.4370300000,0x00,,
4.4384650000,0xFD,,
4.4399000000,0x1E,,
4.4413350000,0x00,,
4.4427800000,0x0C,,
4.4442150000,0x01,,
4.4456500000,0x0F,,
4.4469950000,0x0E,,
4.4483350000,0x1E,,
4.4498650000,0x00,,
4.4610550000,0x53,,
4.4624950000,0xB0,,
4.4639300000,0x1B,,
4.4652700000,0x00,,
4.4668100000,0xFD,,
4.4681500000,0x1E,,
4.4696800000,0x00,,
4.4711150000,0x0C,,
4.4723650000,0x01,,
4.4738950000,0x10,,
4.4754300000,0x0E,,
4.4767700000,0x1F,,
4.4782100000,0x00,,
4.4907750000,0x53,,
4.4922200000,0xB0,,
4.4936550000,0x1B,,
4.4951850000,0x00,,
4.4965300000,0xFD,,
4.4979700000,0x1E,,
4.4994050000,0x00,,
4.5008400000,0x0C,,
4.5022800000,0x01,,
4.5040100000,0x11,,
4.5055450000,0x0E,,
4.5071850000,0x20,,
4.5087200000,0x00,,
