Time [s],Value,Parity Error,Framing Error
-0.1846350000,0x53,,
-0.1831950000,0xC2,,
-0.1816500000,0x1C,,
-0.1801100000,0x00,,
-0.1786700000,0x9D,,
-0.1771250000,0x1B,,
-0.1755850000,0x00,,
-0.1740400000,0x0C,,
-0.1727050000,0x01,,
-0.1711600000,0x00,,
-0.1696150000,0x00,,
-0.1680750000,0x01,,
-0.1667350000,0x00,,
-0.1092450000,0x53,,
-0.1078050000,0xC2,,
-0.1062600000,0x1C,,
-0.1048200000,0x00,,
-0.1034850000,0x9D,,
-0.1019400000,0x1B,,
-0.1003950000,0x00,,
-0.0989550000,0x0C,,
-0.0975150000,0x01,,
-0.0960750000,0x00,,
-0.0945350000,0x00,,
-0.0929900000,0x01,,
-0.0916550000,0x00,,
-0.0001050000,0x53,,
0.0014350000,0xC2,,
0.0028750000,0x1C,,
0.0043150000,0x00,,
0.0057550000,0x9D,,
0.0071950000,0x1B,,
0.0087400000,0x00,,
0.0102800000,0x0C,,
0.0117200000,0x01,,
0.0132650000,0x00,,
0.0148050000,0x00,,
0.0162450000,0x01,,
0.0176850000,0x00,,
0.2136100000,0x53,,
0.2150500000,0xC2,,
0.2165900000,0x1C,,
0.2180300000,0x00,,
0.2195750000,0x9D,,
0.2210150000,0x1B,,
0.2224550000,0x00,,
0.2240000000,0x0C,,
0.2254400000,0x01,,
0.2268800000,0x00,,
0.2284200000,0x00,,
0.2299650000,0x01,,
0.2314050000,0x00,,
0.5521900000,0x53,,
0.5535300000,0xC2,,
0.5550700000,0x1C,,
0.5565100000,0x00,,
0.5580550000,0x9D,,
0.5594900000,0x1B,,
0.5609300000,0x00,,
0.5623700000,0x0C,,
0.5638100000,0x01,,
0.5653550000,0x00,,
0.5667950000,0x01,,
0.5681300000,0x02,,
0.5695700000,0x00,,
0.8005500000,0x53,,
0.8019850000,0xC2,,
0.8034250000,0x1C,,
0.8047650000,0x00,,
0.8063050000,0x9D,,
0.8078450000,0x1B,,
0.8092850000,0x00,,
0.8108300000,0x0C,,
0.8122700000,0x01,,
0.8138100000,0x00,,
0.8152500000,0x00,,
0.8166900000,0x01,,
0.8180250000,0x00,,
0.9264050000,0x53,,
0.9279500000,0xC2,,
0.9293850000,0x1C,,
0.9308250000,0x00,,
0.9323700000,0x9D,,
0.9338100000,0x1B,,
0.9352500000,0x00,,
0.9366900000,0x0C,,
0.9382300000,0x01,,
0.9396700000,0x00,,
0.9411100000,0x00,,
0.9425500000,0x01,,
0.9439900000,0x00,,
1.1462850000,0x53,,
1.1478250000,0xC2,,
1.1492650000,0x1C,,
1.1508100000,0x00,,
1.1523500000,0x9D,,
1.1537900000,0x1B,,
1.1552300000,0x00,,
1.1567750000,0x0C,,
1.1582150000,0x01,,
1.1597550000,0x00,,
1.1610950000,0x00,,
1.1625350000,0x01,,
1.1640750000,0x00,,
1.3903300000,0x53,,
1.3918750000,0xC2,,
1.3934150000,0x1C,,
1.3949600000,0x00,,
1.3965000000,0x9D,,
1.3979400000,0x1B,,
1.3993800000,0x00,,
1.4009250000,0x0C,,
1.4024650000,0x01,,
1.4039050000,0x00,,
1.4054500000,0x00,,
1.4068900000,0x01,,
1.4084300000,0x00,,
1.5412000000,0x53,,
1.5424350000,0xC2,,
1.5438700000,0x1C,,
1.5454150000,0x00,,
1.5469550000,0x9D,,
1.5483950000,0x1B,,
1.5499400000,0x00,,
1.5514800000,0x0C,,
1.5530250000,0x01,,
1.5544650000,0x00,,
1.5559050000,0x01,,
1.5573450000,0x02,,
1.5587850000,0x00,,
1.6180100000,0x53,,
1.6194500000,0xC2,,
1.6209950000,0x1C,,
1.6224350000,0x00,,
1.6238750000,0x9D,,
1.6253100000,0x1B,,
1.6268550000,0x00,,
1.6283950000,0x0C,,
1.6297350000,0x01,,
1.6312750000,0x00,,
1.6327150000,0x00,,
1.6341550000,0x01,,
1.6355950000,0x00,,
1.7268050000,0x53,,
1.7283500000,0xC2,,
1.7297850000,0x1C,,
1.7313300000,0x00,,
1.7327700000,0x9D,,
1.7342100000,0x1B,,
1.7357500000,0x00,,
1.7371900000,0x0C,,
1.7386300000,0x01,,
1.7402750000,0x00,,
1.7417150000,0x00,,
1.7432600000,0x01,,
1.7445950000,0x00,,
1.8064950000,0x53,,
1.8078350000,0xC2,,
1.8092750000,0x1C,,
1.8108150000,0x00,,
1.8122550000,0x9D,,
1.8137950000,0x1B,,
1.8152350000,0x00,,
1.8166750000,0x0C,,
1.8181150000,0x01,,
1.8195550000,0x00,,
1.8210950000,0x00,,
1.8225350000,0x01,,
1.8239750000,0x00,,
1.8858600000,0x53,,
1.8873000000,0xC2,,
1.8887400000,0x1C,,
1.8902850000,0x00,,
1.8917200000,0x9D,,
1.8931600000,0x1B,,
1.8947050000,0x00,,
1.8961450000,0x0C,,
1.8976850000,0x01,,
1.8991250000,0x00,,
1.9005650000,0x00,,
1.9020050000,0x01,,
1.9035450000,0x00,,
1.9668750000,0x53,,
1.9683150000,0xC2,,
1.9698600000,0x1C,,
1.9714000000,0x00,,
1.9728400000,0x9D,,
1.9741750000,0x1B,,
1.9757200000,0x00,,
1.9772600000,0x0C,,
1.9787000000,0x01,,
1.9801400000,0x00,,
1.9815800000,0x01,,
1.9831200000,0x02,,
1.9846600000,0x00,,
2.1095650000,0x53,,
2.1110050000,0xC2,,
2.1125450000,0x1C,,
2.1141900000,0x00,,
2.1156300000,0x9D,,
2.1169650000,0x1B,,
2.1184050000,0x00,,
2.1199450000,0x0C,,
2.1213850000,0x01,,
2.1228250000,0x00,,
2.1243650000,0x00,,
2.1259100000,0x01,,
2.1273500000,0x00,,
2.1943800000,0x53,,
2.1958200000,0xC2,,
2.1973600000,0x1C,,
2.1988000000,0x00,,
2.2003400000,0x9D,,
2.2017800000,0x1B,,
2.2033200000,0x00,,
2.2047600000,0x0C,,
2.2062000000,0x01,,
2.2076400000,0x00,,
2.2090800000,0x00,,
2.2106200000,0x01,,
2.2119550000,0x00,,
2.2612000000,0x53,,
2.2626400000,0xC2,,
2.2640800000,0x1C,,
2.2655200000,0x00,,
2.2670600000,0x9D,,
2.2686000000,0x1B,,
2.2700400000,0x00,,
2.2713800000,0x0C,,
2.2726100000,0x01,,
2.2738450000,0x00,,
2.2753850000,0x01,,
2.2768250000,0x02,,
2.2782650000,0x00,,
2.2995450000,0x53,,
2.3008800000,0xC2,,
2.3023200000,0x1C,,
2.3037600000,0x00,,
2.3053000000,0x9D,,
2.3068400000,0x1B,,
2.3082800000,0x00,,
2.3098250000,0x0C,,
2.3113650000,0x01,,
2.3128050000,0x00,,
2.3143450000,0x00,,
2.3158900000,0x01,,
2.3173300000,0x00,,
2.3446700000,0x53,,
2.3461100000,0xC2,,
2.3475450000,0x1C,,
2.3489850000,0x00,,
2.3504250000,0x9D,,
2.3517600000,0x1B,,
2.3533000000,0x00,,
2.3547400000,0x0C,,
2.3561800000,0x01,,
2.3576200000,0x00,,
2.3590600000,0x01,,
2.3604950000,0x02,,
2.3618350000,0x00,,
2.4162150000,0x53,,
2.4176550000,0xC2,,
2.4191950000,0x1C,,
2.4207350000,0x00,,
2.4220750000,0x9D,,
2.4235150000,0x1B,,
2.4249500000,0x00,,
2.4264950000,0x0C,,
2.4279350000,0x01,,
2.4293750000,0x00,,
2.4309150000,0x02,,
2.4324550000,0x03,,
2.4338950000,0x00,,
2.4933200000,0x53,,
2.4947600000,0xC2,,
2.4962000000,0x1C,,
2.4977400000,0x00,,
2.4990750000,0x9D,,
2.5006200000,0x1B,,
2.5020600000,0x00,,
2.5034950000,0x0C,,
2.5050400000,0x01,,
2.5064800000,0x00,,
2.5079200000,0x03,,
2.5093550000,0x04,,
2.5106950000,0x00,,
2.5899550000,0x53,,
2.5915000000,0xC2,,
2.5930400000,0x1C,,
2.5944800000,0x00,,
2.5958150000,0x9D,,
2.5973600000,0x1B,,
2.5988000000,0x00,,
2.6001350000,0x0C,,
2.6015750000,0x01,,
2.6030150000,0x00,,
2.6044550000,0x04,,
2.6057900000,0x05,,
2.6072300000,0x00,,
2.6160700000,0x53,,
2.6175100000,0xC2,,
2.6190500000,0x1C,,
2.6204900000,0x00,,
2.6219300000,0x9D,,
2.6233700000,0x1B,,
2.6249100000,0x00,,
2.6264550000,0x0C,,
2.6278950000,0x01,,
2.6294350000,0x00,,
2.6308750000,0x05,,
2.6323150000,0x06,,
2.6336500000,0x00,,
2.6496850000,0x53,,
2.6511250000,0xC2,,
2.6526700000,0x1C,,
2.6538000000,0x00,,
2.6552400000,0x9D,,
2.6566800000,0x1B,,
2.6582200000,0x00,,
2.6597650000,0x0C,,
2.6611000000,0x01,,
2.6625400000,0x00,,
2.6640850000,0x04,,
2.6655250000,0x05,,
2.6670650000,0x00,,
2.7027400000,0x53,,
2.7042800000,0xC2,,
2.7058200000,0x1C,,
2.7072600000,0x00,,
2.7087000000,0x9D,,
2.7101400000,0x1B,,
2.7115800000,0x00,,
2.7130150000,0x0C,,
2.7144550000,0x01,,
2.7158950000,0x00,,
2.7174350000,0x05,,
2.7189800000,0x06,,
2.7204150000,0x00,,
2.7485850000,0x53,,
2.7500250000,0xC2,,
2.7514650000,0x1C,,
2.7529050000,0x00,,
2.7543450000,0x9D,,
2.7557850000,0x1B,,
2.7571200000,0x00,,
2.7585600000,0x0C,,
2.7600000000,0x01,,
2.7615400000,0x00,,
2.7630800000,0x06,,
2.7645200000,0x07,,
2.7660650000,0x00,,
2.7697650000,0x53,,
2.7713050000,0xC2,,
2.7728500000,0x1C,,
2.7742900000,0x00,,
2.7758300000,0x9D,,
2.7773750000,0x1B,,
2.7788100000,0x00,,
2.7803550000,0x0C,,
2.7817950000,0x01,,
2.7833350000,0x00,,
2.7847750000,0x07,,
2.7863200000,0x08,,
2.7877600000,0x00,,
2.8241550000,0x53,,
2.8255950000,0xC2,,
2.8270350000,0x1C,,
2.8284750000,0x00,,
2.8298100000,0x9D,,
2.8314550000,0x1B,,
2.8328950000,0x00,,
2.8344350000,0x0C,,
2.8358750000,0x01,,
2.8373150000,0x00,,
2.8387550000,0x08,,
2.8401950000,0x09,,
2.8415300000,0x00,,
2.8496550000,0x53,,
2.8510950000,0xC2,,
2.8526350000,0x1C,,
2.8539750000,0x00,,
2.8554100000,0x9D,,
2.8568500000,0x1B,,
2.8584950000,0x00,,
2.8599350000,0x0C,,
2.8612700000,0x01,,
2.8628150000,0x00,,
2.8643550000,0x09,,
2.8659000000,0x0A,,
2.8672350000,0x00,,
2.8729950000,0x53,,
2.8745350000,0xC2,,
2.8760800000,0x1C,,
2.8776200000,0x00,,
2.8790600000,0x9D,,
2.8805000000,0x1B,,
2.8819400000,0x00,,
2.8832800000,0x0C,,
2.8847200000,0x01,,
2.8862600000,0x00,,
2.8875950000,0x0A,,
2.8890350000,0x0B,,
2.8904750000,0x00,,
2.9251300000,0x53,,
2.9264700000,0xC2,,
2.9279100000,0x1C,,
2.9294500000,0x00,,
2.9309950000,0x9D,,
2.9325350000,0x1B,,
2.9339750000,0x00,,
2.9354150000,0x0C,,
2.9367550000,0x01,,
2.9381950000,0x00,,
2.9396300000,0x0B,,
2.9411750000,0x0C,,
2.9427200000,0x00,,
2.9547550000,0x53,,
2.9560900000,0xC2,,
2.9576350000,0x1C,,
2.9591750000,0x00,,
2.9606150000,0x9D,,
2.9621600000,0x1B,,
2.9637050000,0x00,,
2.9651450000,0x0C,,
2.9664800000,0x01,,
2.9679200000,0x00,,
2.9693600000,0x0C,,
2.9708000000,0x0D,,
2.9721400000,0x00,,
2.9822150000,0x53,,
2.9835550000,0xC2,,
2.9850950000,0x1C,,
2.9864350000,0x00,,
2.9878750000,0x9D,,
2.9893150000,0x1B,,
2.9907550000,0x00,,
2.9920900000,0x0C,,
2.9936350000,0x01,,
2.9950750000,0x00,,
2.9965150000,0x0D,,
2.9979550000,0x0E,,
2.9993900000,0x00,,
3.0177000000,0x53,,
3.0192400000,0xC2,,
3.0206800000,0x1C,,
3.0221200000,0x00,,
3.0235600000,0x9D,,
3.0250000000,0x1B,,
3.0264400000,0x00,,
3.0277750000,0x0C,,
3.0293200000,0x01,,
3.0307600000,0x00,,
3.0323000000,0x0C,,
3.0337400000,0x0D,,
3.0351800000,0x00,,
3.0598600000,0x53,,
3.0614000000,0xC2,,
3.0628400000,0x1C,,
3.0643850000,0x00,,
3.0658250000,0x9D,,
3.0672650000,0x1B,,
3.0689100000,0x00,,
3.0703450000,0x0C,,
3.0718900000,0x01,,
3.0734300000,0x00,,
3.0749750000,0x0D,,
3.0764150000,0x0E,,
3.0779550000,0x00,,
3.0910150000,0x53,,
3.0924550000,0xC2,,
3.0938950000,0x1C,,
3.0952300000,0x00,,
3.0966700000,0x9D,,
3.0982150000,0x1B,,
3.0996550000,0x00,,
3.1010950000,0x0C,,
3.1026350000,0x01,,
3.1040750000,0x00,,
3.1055150000,0x0E,,
3.1069550000,0x0F,,
3.1083950000,0x00,,
3.1213550000,0x53,,
3.1227950000,0xC2,,
3.1243350000,0x1C,,
3.1257750000,0x00,,
3.1272150000,0x9D,,
3.1287550000,0x1B,,
3.1303000000,0x00,,
3.1318400000,0x0C,,
3.1332800000,0x01,,
3.1348250000,0x00,,
3.1362650000,0x0F,,
3.1377050000,0x10,,
3.1391450000,0x00,,
3.1449000000,0x53,,
3.1463400000,0xC2,,
3.1477800000,0x1C,,
3.1493250000,0x00,,
3.1506600000,0x9D,,
3.1521000000,0x1B,,
3.1535400000,0x00,,
3.1550850000,0x0C,,
3.1565200000,0x01,,
3.1579600000,0x00,,
3.1594000000,0x10,,
3.1609450000,0x11,,
3.1622800000,0x00,,
3.1706150000,0x53,,
3.1721550000,0xC2,,
3.1736950000,0x1C,,
3.1752400000,0x00,,
3.1767800000,0x9D,,
3.1783250000,0x1B,,
3.1798650000,0x00,,
3.1814100000,0x0C,,
3.1829500000,0x01,,
3.1843900000,0x00,,
3.1859350000,0x0F,,
3.1874750000,0x10,,
3.1889150000,0x00,,
3.2101050000,0x53,,
3.2116450000,0xC2,,
3.2131900000,0x1C,,
3.2146300000,0x00,,
3.2161700000,0x9D,,
3.2177150000,0x1B,,
3.2192550000,0x00,,
3.2208000000,0x0C,,
3.2223400000,0x01,,
3.2237800000,0x00,,
3.2253250000,0x0E,,
3.2268700000,0x0F,,
3.2283100000,0x00,,
3.2518600000,0x53,,
3.2533000000,0xC2,,
3.2547400000,0x1C,,
3.2562850000,0x00,,
3.2576200000,0x9D,,
3.2591650000,0x1B,,
3.2607050000,0x00,,
3.2622500000,0x0C,,
3.2636900000,0x01,,
3.2651300000,0x00,,
3.2665700000,0x0F,,
3.2680100000,0x10,,
3.2694500000,0x00,,
3.2973150000,0x53,,
3.2987550000,0xC2,,
3.3001950000,0x1C,,
3.3016350000,0x00,,
3.3030750000,0x9D,,
3.3046150000,0x1B,,
3.3060550000,0x00,,
3.3074950000,0x0C,,
3.3088300000,0x01,,
3.3102700000,0x00,,
3.3118150000,0x0E,,
3.3132550000,0x0F,,
3.3147950000,0x00,,
3.3326850000,0x53,,
3.3341250000,0xC2,,
3.3356700000,0x1C,,
3.3372100000,0x00,,
3.3385450000,0x9D,,
3.3400900000,0x1B,,
3.3417350000,0x00,,
3.3431750000,0x0C,,
3.3447150000,0x01,,
3.3460550000,0x00,,
3.3475950000,0x0F,,
3.3490350000,0x10,,
3.3503700000,0x00,,
3.3605500000,0x53,,
3.3619900000,0xC2,,
3.3635300000,0x1C,,
3.3649700000,0x00,,
3.3664100000,0x9D,,
3.3678500000,0x1B,,
3.3692900000,0x00,,
3.3707300000,0x0C,,
3.3721700000,0x01,,
3.3737100000,0x00,,
3.3751500000,0x10,,
3.3765900000,0x11,,
3.3780300000,0x00,,
3.4025100000,0x53,,
3.4038450000,0xC2,,
3.4052850000,0x1C,,
3.4068250000,0x00,,
3.4081650000,0x9D,,
3.4096050000,0x1B,,
3.4110400000,0x00,,
3.4124800000,0x0C,,
3.4139200000,0x01,,
3.4153600000,0x00,,
3.4168000000,0x0F,,
3.4181350000,0x10,,
3.4195750000,0x00,,
3.4462100000,0x53,,
3.4476500000,0xC2,,
3.4491950000,0x1C,,
3.4507350000,0x00,,
3.4522800000,0x9D,,
3.4537200000,0x1B,,
3.4552600000,0x00,,
3.4568050000,0x0C,,
3.4583450000,0x01,,
3.4597850000,0x00,,
3.4613300000,0x10,,
3.4628700000,0x11,,
3.4644150000,0x00,,
3.4753150000,0x53,,
3.4768550000,0xC2,,
3.4782950000,0x1C,,
3.4797350000,0x00,,
3.4811750000,0x9D,,
3.4826150000,0x1B,,
3.4841600000,0x00,,
3.4856000000,0x0C,,
3.4871400000,0x01,,
3.4886850000,0x00,,
3.4902300000,0x11,,
3.4916650000,0x12,,
3.4932100000,0x00,,
3.5171750000,0x53,,
3.5187150000,0xC2,,
3.5201550000,0x1C,,
3.5217000000,0x00,,
3.5230350000,0x9D,,
3.5245800000,0x1B,,
3.5260200000,0x00,,
3.5274550000,0x0C,,
3.5288950000,0x01,,
3.5303350000,0x00,,
3.5317750000,0x12,,
3.5332150000,0x13,,
3.5346550000,0x00,,
3.5369150000,0x53,,
3.5384600000,0xC2,,
3.5400000000,0x1C,,
3.5415450000,0x00,,
3.5430850000,0x9D,,
3.5446250000,0x1B,,
3.5461700000,0x00,,
3.5476100000,0x0C,,
3.5492550000,0x01,,
3.5506950000,0x00,,
3.5523350000,0x11,,
3.5538800000,0x12,,
3.5554200000,0x00,,
3.5786600000,0x53,,
3.5801000000,0xC2,,
3.5816400000,0x1C,,
3.5831800000,0x00,,
3.5847250000,0x9D,,
3.5862650000,0x1B,,
3.5878100000,0x00,,
3.5893500000,0x0C,,
3.5908950000,0x01,,
3.5924350000,0x00,,
3.5938750000,0x12,,
3.5954200000,0x13,,
3.5970650000,0x00,,
3.6283200000,0x53,,
3.6297600000,0xC2,,
3.6311950000,0x1C,,
3.6326350000,0x00,,
3.6340750000,0x9D,,
3.6356200000,0x1B,,
3.6371600000,0x00,,
3.6387000000,0x0C,,
3.6402450000,0x01,,
3.6416850000,0x00,,
3.6432250000,0x13,,
3.6448700000,0x14,,
3.6463100000,0x00,,
3.6560750000,0x53,,
3.6575150000,0xC2,,
3.6588500000,0x1C,,
3.6603950000,0x00,,
3.6618350000,0x9D,,
3.6633750000,0x1B,,
3.6648150000,0x00,,
3.6664600000,0x0C,,
3.6680000000,0x01,,
3.6694400000,0x00,,
3.6708800000,0x12,,
3.6724250000,0x13,,
3.6738650000,0x00,,
3.6799300000,0x53,,
3.6814700000,0xC2,,
3.6830100000,0x1C,,
3.6845550000,0x00,,
3.6860950000,0x9D,,
3.6875350000,0x1B,,
3.6888700000,0x00,,
3.6903100000,0x0C,,
3.6918550000,0x01,,
3.6933950000,0x00,,
3.6949350000,0x11,,
3.6964800000,0x12,,
3.6980200000,0x00,,
3.7025450000,0x53,,
3.7040850000,0xC2,,
3.7056300000,0x1C,,
3.7070700000,0x00,,
3.7085100000,0x9D,,
3.7100500000,0x1B,,
3.7114900000,0x00,,
3.7130300000,0x0C,,
3.7145750000,0x01,,
3.7161150000,0x00,,
3.7176600000,0x10,,
3.7192000000,0x11,,
3.7207400000,0x00,,
3.7409950000,0x53,,
3.7425400000,0xC2,,
3.7440800000,0x1C,,
3.7455200000,0x00,,
3.7470650000,0x9D,,
3.7486050000,0x1B,,
3.7500450000,0x00,,
3.7516900000,0x0C,,
3.7531300000,0x01,,
3.7545700000,0x00,,
3.7561100000,0x11,,
3.7576550000,0x12,,
3.7591950000,0x00,,
3.7690650000,0x53,,
3.7705050000,0xC2,,
3.7720500000,0x1C,,
3.7734900000,0x00,,
3.7749250000,0x9D,,
3.7763650000,0x1B,,
3.7778050000,0x00,,
3.7792450000,0x0C,,
3.7805800000,0x01,,
3.7820200000,0x00,,
3.7834600000,0x12,,
3.7850000000,0x13,,
3.7863400000,0x00,,
3.7899350000,0x53,,
3.7913750000,0xC2,,
3.7928150000,0x1C,,
3.7942550000,0x00,,
3.7956950000,0x9D,,
3.7971350000,0x1B,,
3.7985700000,0x00,,
3.8000100000,0x0C,,
3.8014500000,0x01,,
3.8028900000,0x00,,
3.8042250000,0x13,,
3.8057650000,0x14,,
3.8072050000,0x00,,
3.8115250000,0x53,,
3.8129650000,0xC2,,
3.8145050000,0x1C,,
3.8158400000,0x00,,
3.8173850000,0x9D,,
3.8188250000,0x1B,,
3.8202600000,0x00,,
3.8217000000,0x0C,,
3.8231400000,0x01,,
3.8246850000,0x00,,
3.8261200000,0x12,,
3.8275600000,0x13,,
3.8290000000,0x00,,
3.8311600000,0x53,,
3.8327000000,0xC2,,
3.8340400000,0x1C,,
3.8354750000,0x00,,
3.8369150000,0x9D,,
3.8383550000,0x1B,,
3.8397950000,0x00,,
3.8412350000,0x0C,,
3.8426750000,0x01,,
3.8441150000,0x00,,
3.8455500000,0x11,,
3.8469900000,0x12,,
3.8498700000,0x53,,
3.8513100000,0xC2,,
3.8527500000,0x1C,,
3.8541850000,0x00,,
3.8556250000,0x9D,,
3.8570650000,0x1B,,
3.8586100000,0x00,,
3.8600450000,0x0C,,
3.8614850000,0x01,,
3.8629250000,0x00,,
3.8644700000,0x12,,
3.8660100000,0x13,,
3.8675550000,0x00,,
3.8891400000,0x53,,
3.8905800000,0xC2,,
3.8920200000,0x1C,,
3.8934600000,0x00,,
3.8949000000,0x9D,,
3.8963400000,0x1B,,
3.8978800000,0x00,,
3.8993200000,0x0C,,
3.9008600000,0x01,,
3.9024000000,0x00,,
3.9039450000,0x13,,
3.9054850000,0x14,,
3.9070250000,0x00,,
3.9130900000,0x53,,
3.9146300000,0xC2,,
3.9160700000,0x1C,,
3.9175100000,0x00,,
3.9189500000,0x9D,,
3.9204900000,0x1B,,
3.9220300000,0x00,,
3.9235750000,0x0C,,
3.9251150000,0x01,,
3.9266550000,0x00,,
3.9282000000,0x12,,
3.9297400000,0x13,,
3.9312800000,0x00,,
3.9485500000,0x53,,
3.9500900000,0xC2,,
3.9516300000,0x1C,,
3.9530700000,0x00,,
3.9546100000,0x9D,,
3.9561550000,0x1B,,
3.9576950000,0x00,,
3.9592400000,0x0C,,
3.9606800000,0x01,,
3.9622200000,0x00,,
3.9638650000,0x13,,
3.9654050000,0x14,,
3.9669500000,0x00,,
3.9809300000,0x53,,
3.9824750000,0xC2,,
3.9840150000,0x1C,,
3.9855600000,0x00,,
3.9871000000,0x9D,,
3.9886400000,0x1B,,
3.9900800000,0x00,,
3.9917250000,0x0C,,
3.9931650000,0x01,,
3.9948100000,0x00,,
3.9962500000,0x12,,
3.9977950000,0x13,,
3.9993350000,0x00,,
4.0436400000,0x53,,
4.0451850000,0xC2,,
4.0467250000,0x1C,,
4.0482650000,0x00,,
4.0497050000,0x9D,,
4.0511450000,0x1B,,
4.0526900000,0x00,,
4.0543350000,0x0C,,
4.0557750000,0x01,,
4.0573150000,0x00,,
4.0588600000,0x13,,
4.0604000000,0x14,,
4.0618400000,0x00,,
4.0894900000,0x53,,
4.0909300000,0xC2,,
4.0923700000,0x1C,,
4.0938100000,0x00,,
4.0953500000,0x9D,,
4.0968950000,0x1B,,
4.0983350000,0x00,,
4.0998750000,0x0C,,
4.1013150000,0x01,,
4.1028550000,0x00,,
4.1044000000,0x14,,
4.1059400000,0x15,,
4.1073800000,0x00,,
4.1210550000,0x53,,
4.1224950000,0xC2,,
4.1240350000,0x1C,,
4.1254750000,0x00,,
4.1269150000,0x9D,,
4.1284550000,0x1B,,
4.1300000000,0x00,,
4.1315400000,0x0C,,
4.1329800000,0x01,,
4.1345250000,0x00,,
4.1360650000,0x15,,
4.1375050000,0x16,,
4.1389450000,0x00,,
4.1425450000,0x53,,
4.1439850000,0xC2,,
4.1454250000,0x1C,,
4.1468650000,0x00,,
4.1483000000,0x9D,,
4.1498450000,0x1B,,
4.1512850000,0x00,,
4.1527250000,0x0C,,
4.1541650000,0x01,,
4.1556000000,0x00,,
4.1570400000,0x16,,
4.1584800000,0x17,,
4.1600250000,0x00,,
4.1763700000,0x53,,
4.1778100000,0xC2,,
4.1792500000,0x1C,,
4.1807900000,0x00,,
4.1821300000,0x9D,,
4.1836700000,0x1B,,
4.1851100000,0x00,,
4.1865500000,0x0C,,
4.1879900000,0x01,,
4.1894300000,0x00,,
4.1908700000,0x15,,
4.1923100000,0x16,,
4.1938500000,0x00,,
4.2319950000,0x53,,
4.2334350000,0xC2,,
4.2349750000,0x1C,,
4.2364150000,0x00,,
4.2378550000,0x9D,,
4.2392950000,0x1B,,
4.2408350000,0x00,,
4.2422750000,0x0C,,
4.2436100000,0x01,,
4.2451550000,0x00,,
4.2466950000,0x14,,
4.2482400000,0x15,,
4.2497800000,0x00,,
4.2527650000,0x53,,
4.2543050000,0xC2,,
4.2557450000,0x1C,,
4.2571850000,0x00,,
4.2586250000,0x9D,,
4.2601650000,0x1B,,
4.2615050000,0x00,,
4.2629450000,0x0C,,
4.2644850000,0x01,,
4.2658200000,0x00,,
4.2672600000,0x13,,
4.2687000000,0x14,,
4.2701400000,0x00,,
4.2878250000,0x53,,
4.2893650000,0xC2,,
4.2909100000,0x1C,,
4.2924500000,0x00,,
4.2938900000,0x9D,,
4.2953300000,0x1B,,
4.2967700000,0x00,,
4.2982100000,0x0C,,
4.2997500000,0x01,,
4.3010900000,0x00,,
4.3025300000,0x14,,
4.3039650000,0x15,,
4.3054050000,0x00,,
4.3388250000,0x53,,
4.3403650000,0xC2,,
4.3419100000,0x1C,,
4.3433500000,0x00,,
4.3448900000,0x9D,,
4.3464300000,0x1B,,
4.3479750000,0x00,,
4.3495150000,0x0C,,
4.3510600000,0x01,,
4.3525000000,0x00,,
4.3540400000,0x15,,
4.3555850000,0x16,,
4.3571250000,0x00,,
4.3601050000,0x53,,
4.3614450000,0xC2,,
4.3629850000,0x1C,,
4.3644250000,0x00,,
4.3658650000,0x9D,,
4.3673050000,0x1B,,
4.3687450000,0x00,,
4.3701850000,0x0C,,
4.3717250000,0x01,,
4.3731650000,0x00,,
4.3745050000,0x16,,
4.3760450000,0x17,,
4.3775900000,0x00,,
4.4203700000,0x53,,
4.4219100000,0xC2,,
4.4234550000,0x1C,,
4.4249950000,0x00,,
4.4265400000,0x9D,,
4.4278750000,0x1B,,
4.4293150000,0x00,,
4.4308600000,0x0C,,
4.4321950000,0x01,,
4.4338400000,0x00,,
4.4353850000,0x15,,
4.4369250000,0x16,,
4.4384700000,0x00,,
4.4462850000,0x53,,
4.4477250000,0xC2,,
4.4492650000,0x1C,,
4.4508100000,0x00,,
4.4522500000,0x9D,,
4.4536900000,0x1B,,
4.4551250000,0x00,,
4.4566700000,0x0C,,
4.4581100000,0x01,,
